T2B70 000:014.618   SEGGER J-Link V7.94c Log File
T2B70 000:014.778   DLL Compiled: Jan  3 2024 15:15:42
T2B70 000:014.787   Logging started @ 2024-09-05 10:03
T2B70 000:014.795   Process: C:\Keil_v5\UV4\UV4.exe
T2B70 000:014.806 - 14.803ms
T2B70 000:014.821 JLINK_SetWarnOutHandler(...)
T2B70 000:014.868 - 0.048ms
T2B70 000:014.881 JLINK_OpenEx(...)
T2B70 000:017.263   Firmware: J-Link V9 compiled May  7 2021 16:26:12
T2B70 000:017.917   Firmware: J-Link V9 compiled May  7 2021 16:26:12
T2B70 000:018.085   Decompressing FW timestamp took 131 us
T2B70 000:023.930   Hardware: V9.60
T2B70 000:023.954   S/N: 69660577
T2B70 000:023.966   OEM: SEGGER
T2B70 000:023.978   Feature(s): RDI, GDB, FlashDL, FlashBP, JFlash
T2B70 000:024.571   Bootloader: (Could not read)
T2B70 000:025.337   TELNET listener socket opened on port 19021
T2B70 000:025.560   WEBSRV WEBSRV_Init(): Starting webserver thread(s)
T2B70 000:026.480   WEBSRV Webserver running on local port 19080
T2B70 000:026.702   Looking for J-Link GUI Server exe at: C:\Keil_v5\ARM\Segger\JLinkGUIServer.exe
T2B70 000:026.893   Looking for J-Link GUI Server exe at: C:\Program Files (x86)\SEGGER\JLink_V722b\JLinkGUIServer.exe
T2B70 000:026.957   Forking J-Link GUI Server: C:\Program Files (x86)\SEGGER\JLink_V722b\JLinkGUIServer.exe
T2B70 000:033.826   J-Link GUI Server info: "J-Link GUI server V7.22b "
T2B70 000:034.084   J-Link GUI Server: Connection breakdown.
T2B70 000:034.201 - 19.311ms returns "O.K."
T2B70 000:034.227 JLINK_GetEmuCaps()
T2B70 000:034.239 - 0.009ms returns 0xB9FF7BBF
T2B70 000:034.255 JLINK_TIF_GetAvailable(...)
T2B70 000:034.418 - 0.164ms
T2B70 000:034.442 JLINK_SetErrorOutHandler(...)
T2B70 000:034.451 - 0.009ms
T2B70 000:034.481 JLINK_ExecCommand("ProjectFile = "C:\Users\Z\Desktop\RM\HERO_2025\2025HERO\Chassis_8M_cpp\MDK-ARM\JLinkSettings.ini"", ...). 
T2B70 000:055.215   Ref file found at: C:\Keil_v5\ARM\Segger\JLinkDevices.ref
T2B70 000:055.364   REF file references invalid XML file: C:\Program Files\SEGGER\JLink_V794c\JLinkDevices.xml
T2B70 000:057.080 - 22.599ms returns 0x00
T2B70 000:057.134 JLINK_ExecCommand("Device = STM32F407VETx", ...). 
T2B70 000:058.695   Device "STM32F407VE" selected.
T2B70 000:059.237 - 2.089ms returns 0x00
T2B70 000:059.263 JLINK_ExecCommand("DisableConnectionTimeout", ...). 
T2B70 000:059.278 - 0.002ms returns 0x01
T2B70 000:059.292 JLINK_GetHardwareVersion()
T2B70 000:059.305 - 0.008ms returns 96000
T2B70 000:059.319 JLINK_GetDLLVersion()
T2B70 000:059.328 - 0.008ms returns 79403
T2B70 000:059.341 JLINK_GetOEMString(...)
T2B70 000:059.351 JLINK_GetFirmwareString(...)
T2B70 000:059.359 - 0.008ms
T2B70 000:059.423 JLINK_GetDLLVersion()
T2B70 000:059.437 - 0.014ms returns 79403
T2B70 000:059.448 JLINK_GetCompileDateTime()
T2B70 000:059.456 - 0.008ms
T2B70 000:059.481 JLINK_GetFirmwareString(...)
T2B70 000:059.490 - 0.008ms
T2B70 000:059.505 JLINK_GetHardwareVersion()
T2B70 000:059.514 - 0.008ms returns 96000
T2B70 000:059.529 JLINK_GetSN()
T2B70 000:059.538 - 0.008ms returns 69660577
T2B70 000:059.552 JLINK_GetOEMString(...)
T2B70 000:059.576 JLINK_TIF_Select(JLINKARM_TIF_SWD)
T2B70 000:060.140 - 0.563ms returns 0x00
T2B70 000:060.161 JLINK_HasError()
T2B70 000:060.186 JLINK_SetSpeed(5000)
T2B70 000:060.284 - 0.099ms
T2B70 000:060.305 JLINK_GetId()
T2B70 000:060.509   InitTarget() start
T2B70 000:060.532    J-Link Script File: Executing InitTarget()
T2B70 000:060.798   SWD selected. Executing JTAG -> SWD switching sequence.
T2B70 000:062.273   DAP initialized successfully.
T2B70 000:066.827   InitTarget() end - Took 6.25ms
T2B70 000:067.384   Found SW-DP with ID 0x2BA01477
T2B70 000:069.081   DPIDR: 0x2BA01477
T2B70 000:069.109   CoreSight SoC-400 or earlier
T2B70 000:069.127   Scanning AP map to find all available APs
T2B70 000:069.618   AP[1]: Stopped AP scan as end of AP map has been reached
T2B70 000:069.648   AP[0]: AHB-AP (IDR: 0x24770011)
T2B70 000:069.665   Iterating through AP map to find AHB-AP to use
T2B70 000:070.363   AP[0]: Core found
T2B70 000:070.390   AP[0]: AHB-AP ROM base: 0xE00FF000
T2B70 000:070.809   CPUID register: 0x410FC241. Implementer code: 0x41 (ARM)
T2B70 000:070.838   Found Cortex-M4 r0p1, Little endian.
T2B70 000:071.138   -- Max. mem block: 0x00010C40
T2B70 000:071.460   CPU_ReadMem(4 bytes @ 0xE000EDF0)
T2B70 000:071.785   CPU_ReadMem(4 bytes @ 0xE0002000)
T2B70 000:072.053   FPUnit: 6 code (BP) slots and 2 literal slots
T2B70 000:072.072   CPU_ReadMem(4 bytes @ 0xE000EDFC)
T2B70 000:072.338   CPU_WriteMem(4 bytes @ 0xE000EDFC)
T2B70 000:072.674   CPU_ReadMem(4 bytes @ 0xE0001000)
T2B70 000:072.960   CPU_WriteMem(4 bytes @ 0xE0001000)
T2B70 000:073.231   CPU_ReadMem(4 bytes @ 0xE000ED88)
T2B70 000:073.498   CPU_WriteMem(4 bytes @ 0xE000ED88)
T2B70 000:073.775   CPU_ReadMem(4 bytes @ 0xE000ED88)
T2B70 000:074.052   CPU_WriteMem(4 bytes @ 0xE000ED88)
T2B70 000:074.384   CoreSight components:
T2B70 000:074.446   ROMTbl[0] @ E00FF000
T2B70 000:074.462   CPU_ReadMem(64 bytes @ 0xE00FF000)
T2B70 000:075.020   CPU_ReadMem(32 bytes @ 0xE000EFE0)
T2B70 000:075.431   [0][0]: E000E000 CID B105E00D PID 000BB00C SCS-M7
T2B70 000:075.452   CPU_ReadMem(32 bytes @ 0xE0001FE0)
T2B70 000:075.832   [0][1]: E0001000 CID B105E00D PID 003BB002 DWT
T2B70 000:075.851   CPU_ReadMem(32 bytes @ 0xE0002FE0)
T2B70 000:076.225   [0][2]: E0002000 CID B105E00D PID 002BB003 FPB
T2B70 000:076.244   CPU_ReadMem(32 bytes @ 0xE0000FE0)
T2B70 000:076.629   [0][3]: E0000000 CID B105E00D PID 003BB001 ITM
T2B70 000:076.648   CPU_ReadMem(32 bytes @ 0xE0040FE0)
T2B70 000:077.044   [0][4]: E0040000 CID B105900D PID 000BB9A1 TPIU
T2B70 000:077.063   CPU_ReadMem(32 bytes @ 0xE0041FE0)
T2B70 000:077.444   [0][5]: E0041000 CID B105900D PID 000BB925 ETM
T2B70 000:077.682 - 17.376ms returns 0x2BA01477
T2B70 000:077.703 JLINK_GetDLLVersion()
T2B70 000:077.722 - 0.019ms returns 79403
T2B70 000:077.738 JLINK_CORE_GetFound()
T2B70 000:077.750 - 0.011ms returns 0xE0000FF
T2B70 000:077.767 JLINK_GetDebugInfo(0x100 = JLINKARM_ROM_TABLE_ADDR_INDEX)
T2B70 000:077.777   Value=0xE00FF000
T2B70 000:077.789 - 0.023ms returns 0
T2B70 000:077.812 JLINK_GetDebugInfo(0x100 = JLINKARM_ROM_TABLE_ADDR_INDEX)
T2B70 000:077.821   Value=0xE00FF000
T2B70 000:077.833 - 0.020ms returns 0
T2B70 000:077.843 JLINK_GetDebugInfo(0x101 = JLINKARM_DEBUG_INFO_ETM_ADDR_INDEX)
T2B70 000:077.851   Value=0xE0041000
T2B70 000:077.862 - 0.019ms returns 0
T2B70 000:077.877 JLINK_ReadMemEx(0xE0041FD0, 0x20 Bytes, Flags = 0x02000004)
T2B70 000:077.901   CPU_ReadMem(32 bytes @ 0xE0041FD0)
T2B70 000:078.281   Data:  04 00 00 00 00 00 00 00 00 00 00 00 00 00 00 00 ...
T2B70 000:078.299 - 0.422ms returns 32 (0x20)
T2B70 000:078.312 JLINK_GetDebugInfo(0x102 = JLINKARM_DEBUG_INFO_MTB_ADDR_INDEX)
T2B70 000:078.321   Value=0x00000000
T2B70 000:078.333 - 0.020ms returns 0
T2B70 000:078.343 JLINK_GetDebugInfo(0x103 = JLINKARM_DEBUG_INFO_TPIU_ADDR_INDEX)
T2B70 000:078.351   Value=0xE0040000
T2B70 000:078.362 - 0.019ms returns 0
T2B70 000:078.372 JLINK_GetDebugInfo(0x104 = JLINKARM_DEBUG_INFO_ITM_ADDR_INDEX)
T2B70 000:078.380   Value=0xE0000000
T2B70 000:078.392 - 0.019ms returns 0
T2B70 000:078.401 JLINK_GetDebugInfo(0x105 = JLINKARM_DEBUG_INFO_DWT_ADDR_INDEX)
T2B70 000:078.409   Value=0xE0001000
T2B70 000:078.420 - 0.019ms returns 0
T2B70 000:078.430 JLINK_GetDebugInfo(0x106 = JLINKARM_DEBUG_INFO_FPB_ADDR_INDEX)
T2B70 000:078.438   Value=0xE0002000
T2B70 000:078.449 - 0.019ms returns 0
T2B70 000:078.459 JLINK_GetDebugInfo(0x107 = JLINKARM_DEBUG_INFO_NVIC_ADDR_INDEX)
T2B70 000:078.467   Value=0xE000E000
T2B70 000:078.478 - 0.019ms returns 0
T2B70 000:078.488 JLINK_GetDebugInfo(0x10C = JLINKARM_DEBUG_INFO_DBG_ADDR_INDEX)
T2B70 000:078.495   Value=0xE000EDF0
T2B70 000:078.507 - 0.019ms returns 0
T2B70 000:078.519 JLINK_GetDebugInfo(0x01 = Unknown)
T2B70 000:078.527   Value=0x00000001
T2B70 000:078.538 - 0.021ms returns 0
T2B70 000:078.549 JLINK_ReadMemU32(0xE000ED00, 0x1 Items)
T2B70 000:078.562   CPU_ReadMem(4 bytes @ 0xE000ED00)
T2B70 000:078.812   Data:  41 C2 0F 41
T2B70 000:078.840   Debug reg: CPUID
T2B70 000:078.858 - 0.309ms returns 1 (0x1)
T2B70 000:078.871 JLINK_GetDebugInfo(0x10F = JLINKARM_DEBUG_INFO_HAS_CORTEX_M_SECURITY_EXT_INDEX)
T2B70 000:078.880   Value=0x00000000
T2B70 000:078.891 - 0.020ms returns 0
T2B70 000:078.902 JLINK_HasError()
T2B70 000:078.913 JLINK_SetResetType(JLINKARM_CM3_RESET_TYPE_NORMAL)
T2B70 000:078.921 - 0.008ms returns JLINKARM_CM3_RESET_TYPE_NORMAL
T2B70 000:078.931 JLINK_Reset()
T2B70 000:078.953   CPU is running
T2B70 000:078.966   CPU_WriteMem(4 bytes @ 0xE000EDF0)
T2B70 000:079.317   CPU is running
T2B70 000:079.337   CPU_WriteMem(4 bytes @ 0xE000EDFC)
T2B70 000:079.659   Reset: Halt core after reset via DEMCR.VC_CORERESET.
T2B70 000:080.022   Reset: Reset device via AIRCR.SYSRESETREQ.
T2B70 000:080.043   CPU is running
T2B70 000:080.057   CPU_WriteMem(4 bytes @ 0xE000ED0C)
T2B70 000:132.482   CPU_ReadMem(4 bytes @ 0xE000EDF0)
T2B70 000:132.786   CPU_ReadMem(4 bytes @ 0xE000EDF0)
T2B70 000:134.999   CPU_WriteMem(4 bytes @ 0xE000EDFC)
T2B70 000:140.771   CPU_ReadMem(4 bytes @ 0xE000EDF0)
T2B70 000:142.854   CPU_WriteMem(4 bytes @ 0xE0002000)
T2B70 000:143.132   CPU_ReadMem(4 bytes @ 0xE000EDFC)
T2B70 000:143.401   CPU_ReadMem(4 bytes @ 0xE0001000)
T2B70 000:143.695 - 64.763ms
T2B70 000:143.723 JLINK_HasError()
T2B70 000:143.791 JLINK_ReadReg(R15 (PC))
T2B70 000:143.810 - 0.023ms returns 0x08000234
T2B70 000:143.822 JLINK_ReadReg(XPSR)
T2B70 000:143.831 - 0.009ms returns 0x01000000
T2B70 000:143.842 JLINK_Halt()
T2B70 000:143.851 - 0.008ms returns 0x00
T2B70 000:143.861 JLINK_ReadMemU32(0xE000EDF0, 0x1 Items)
T2B70 000:143.875   CPU_ReadMem(4 bytes @ 0xE000EDF0)
T2B70 000:144.124   Data:  03 00 03 00
T2B70 000:144.143   Debug reg: DHCSR
T2B70 000:144.156 - 0.294ms returns 1 (0x1)
T2B70 000:144.173 JLINK_WriteU32_64(0xE000EDF0, 0xA05F0003)
T2B70 000:144.182   Debug reg: DHCSR
T2B70 000:144.517   CPU_WriteMem(4 bytes @ 0xE000EDF0)
T2B70 000:144.780 - 0.606ms returns 0 (0x00000000)
T2B70 000:144.808 JLINK_WriteU32_64(0xE000EDFC, 0x01000000)
T2B70 000:144.828   Debug reg: DEMCR
T2B70 000:144.854   CPU_WriteMem(4 bytes @ 0xE000EDFC)
T2B70 000:145.173 - 0.364ms returns 0 (0x00000000)
T2B70 000:145.240 JLINK_GetHWStatus(...)
T2B70 000:145.392 - 0.152ms returns 0
T2B70 000:145.447 JLINK_GetNumBPUnits(Type = 0xFFFFFF00)
T2B70 000:145.465 - 0.018ms returns 0x06
T2B70 000:145.482 JLINK_GetNumBPUnits(Type = 0xF0)
T2B70 000:145.501 - 0.019ms returns 0x2000
T2B70 000:145.520 JLINK_GetNumWPUnits()
T2B70 000:145.533 - 0.013ms returns 4
T2B70 000:145.583 JLINK_GetSpeed()
T2B70 000:145.602 - 0.019ms returns 4000
T2B70 000:145.634 JLINK_ReadMemU32(0xE000E004, 0x1 Items)
T2B70 000:145.659   CPU_ReadMem(4 bytes @ 0xE000E004)
T2B70 000:145.945   Data:  02 00 00 00
T2B70 000:145.964 - 0.329ms returns 1 (0x1)
T2B70 000:145.976 JLINK_ReadMemU32(0xE000E004, 0x1 Items)
T2B70 000:145.990   CPU_ReadMem(4 bytes @ 0xE000E004)
T2B70 000:146.309   Data:  02 00 00 00
T2B70 000:146.327 - 0.351ms returns 1 (0x1)
T2B70 000:146.340 JLINK_WriteMemEx(0xE0001000, 0x0000001C Bytes, Flags = 0x02000004)
T2B70 000:146.349   Data:  01 00 00 00 00 00 00 00 00 00 00 00 00 00 00 00 ...
T2B70 000:146.370   CPU_WriteMem(28 bytes @ 0xE0001000)
T2B70 000:146.781 - 0.440ms returns 0x1C
T2B70 000:146.801 JLINK_HasError()
T2B70 000:146.813 JLINK_ReadReg(R15 (PC))
T2B70 000:146.824 - 0.011ms returns 0x08000234
T2B70 000:146.835 JLINK_ReadReg(XPSR)
T2B70 000:146.844 - 0.009ms returns 0x01000000
T2B70 000:152.758 JLINK_ReadMemEx(0xE0001004, 0x4 Bytes, Flags = 0x02000000)
T2B70 000:152.797   Data:  00 00 00 00
T2B70 000:152.810   Debug reg: DWT_CYCCNT
T2B70 000:152.822 - 0.065ms returns 4 (0x4)
T2B70 000:244.309 JLINK_HasError()
T2B70 000:244.343 JLINK_SetResetType(JLINKARM_CM3_RESET_TYPE_NORMAL)
T2B70 000:244.354 - 0.010ms returns JLINKARM_CM3_RESET_TYPE_NORMAL
T2B70 000:244.364 JLINK_Reset()
T2B70 000:244.387   CPU_WriteMem(4 bytes @ 0xE000EDF0)
T2B70 000:244.788   CPU_WriteMem(4 bytes @ 0xE000EDFC)
T2B70 000:245.081   Reset: Halt core after reset via DEMCR.VC_CORERESET.
T2B70 000:245.449   Reset: Reset device via AIRCR.SYSRESETREQ.
T2B70 000:245.471   CPU_WriteMem(4 bytes @ 0xE000ED0C)
T2B70 000:299.260   CPU_ReadMem(4 bytes @ 0xE000EDF0)
T2B70 000:299.552   CPU_ReadMem(4 bytes @ 0xE000EDF0)
T2B70 000:299.820   CPU_WriteMem(4 bytes @ 0xE000EDFC)
T2B70 000:305.683   CPU_ReadMem(4 bytes @ 0xE000EDF0)
T2B70 000:307.851   CPU_WriteMem(4 bytes @ 0xE0002000)
T2B70 000:308.130   CPU_ReadMem(4 bytes @ 0xE000EDFC)
T2B70 000:308.390   CPU_ReadMem(4 bytes @ 0xE0001000)
T2B70 000:308.649 - 64.284ms
T2B70 000:308.746 JLINK_HasError()
T2B70 000:308.766 JLINK_ReadReg(R15 (PC))
T2B70 000:308.779 - 0.012ms returns 0x08000234
T2B70 000:308.790 JLINK_ReadReg(XPSR)
T2B70 000:308.799 - 0.009ms returns 0x01000000
T2B70 000:309.474 JLINK_ReadMemEx(0x08000234, 0x3C Bytes, Flags = 0x02000000)
T2B70 000:309.500   CPU_ReadMem(128 bytes @ 0x08000200)
T2B70 000:310.272    -- Updating C cache (128 bytes @ 0x08000200)
T2B70 000:310.291    -- Read from C cache (60 bytes @ 0x08000234)
T2B70 000:310.305   Data:  09 48 80 47 09 48 00 47 FE E7 FE E7 FE E7 FE E7 ...
T2B70 000:310.317 - 0.843ms returns 60 (0x3C)
T2B70 000:310.330 JLINK_ReadMemEx(0x08000234, 0x2 Bytes, Flags = 0x02000000)
T2B70 000:310.340    -- Read from C cache (2 bytes @ 0x08000234)
T2B70 000:310.352   Data:  09 48
T2B70 000:310.364 - 0.033ms returns 2 (0x2)
T2B70 000:310.457 JLINK_ReadMemEx(0x08000236, 0x2 Bytes, Flags = 0x02000000)
T2B70 000:310.466    -- Read from C cache (2 bytes @ 0x08000236)
T2B70 000:310.478   Data:  80 47
T2B70 000:310.490 - 0.033ms returns 2 (0x2)
T2B70 002:770.566 JLINK_ReadMemEx(0x08000236, 0x2 Bytes, Flags = 0x02000000)
T2B70 002:770.601    -- Read from C cache (2 bytes @ 0x08000236)
T2B70 002:770.614   Data:  80 47
T2B70 002:770.627 - 0.062ms returns 2 (0x2)
T2B70 002:770.639 JLINK_ReadMemEx(0x08000238, 0x3C Bytes, Flags = 0x02000000)
T2B70 002:770.647    -- Read from C cache (60 bytes @ 0x08000238)
T2B70 002:770.660   Data:  09 48 00 47 FE E7 FE E7 FE E7 FE E7 FE E7 FE E7 ...
T2B70 002:770.671 - 0.032ms returns 60 (0x3C)
T2B70 002:770.681 JLINK_ReadMemEx(0x08000238, 0x2 Bytes, Flags = 0x02000000)
T2B70 002:770.689    -- Read from C cache (2 bytes @ 0x08000238)
T2B70 002:770.701   Data:  09 48
T2B70 002:770.712 - 0.031ms returns 2 (0x2)
T2B70 003:349.923 JLINK_HasError()
T2B70 003:349.948 JLINK_ReadReg(R0)
T2B70 003:350.217 - 0.268ms returns 0x00000000
T2B70 003:350.239 JLINK_ReadReg(R1)
T2B70 003:350.249 - 0.009ms returns 0x00000000
T2B70 003:350.259 JLINK_ReadReg(R2)
T2B70 003:350.268 - 0.008ms returns 0x00000000
T2B70 003:350.278 JLINK_ReadReg(R3)
T2B70 003:350.286 - 0.008ms returns 0x00000000
T2B70 003:350.296 JLINK_ReadReg(R4)
T2B70 003:350.304 - 0.008ms returns 0x00000000
T2B70 003:350.314 JLINK_ReadReg(R5)
T2B70 003:350.322 - 0.008ms returns 0x00000000
T2B70 003:350.332 JLINK_ReadReg(R6)
T2B70 003:350.340 - 0.008ms returns 0x00000000
T2B70 003:350.350 JLINK_ReadReg(R7)
T2B70 003:350.358 - 0.008ms returns 0x00000000
T2B70 003:350.375 JLINK_ReadReg(R8)
T2B70 003:350.383 - 0.015ms returns 0x00000000
T2B70 003:350.393 JLINK_ReadReg(R9)
T2B70 003:350.401 - 0.008ms returns 0x00000000
T2B70 003:350.411 JLINK_ReadReg(R10)
T2B70 003:350.420 - 0.008ms returns 0x00000000
T2B70 003:350.429 JLINK_ReadReg(R11)
T2B70 003:350.438 - 0.008ms returns 0x00000000
T2B70 003:350.447 JLINK_ReadReg(R12)
T2B70 003:350.455 - 0.008ms returns 0x00000000
T2B70 003:350.465 JLINK_ReadReg(R13 (SP))
T2B70 003:350.474 - 0.008ms returns 0x20008C18
T2B70 003:350.484 JLINK_ReadReg(R14)
T2B70 003:350.492 - 0.008ms returns 0xFFFFFFFF
T2B70 003:350.502 JLINK_ReadReg(R15 (PC))
T2B70 003:350.511 - 0.008ms returns 0x08000234
T2B70 003:350.521 JLINK_ReadReg(XPSR)
T2B70 003:350.529 - 0.008ms returns 0x01000000
T2B70 003:350.539 JLINK_ReadReg(MSP)
T2B70 003:350.547 - 0.008ms returns 0x20008C18
T2B70 003:350.557 JLINK_ReadReg(PSP)
T2B70 003:350.565 - 0.008ms returns 0x00000000
T2B70 003:350.575 JLINK_ReadReg(CFBP)
T2B70 003:350.584 - 0.008ms returns 0x00000000
T2B70 003:350.644 JLINK_ReadReg(FPSCR)
T2B70 003:353.526 - 2.881ms returns 0x00000000
T2B70 003:353.550 JLINK_ReadReg(FPS0)
T2B70 003:353.563 - 0.012ms returns 0x00000000
T2B70 003:353.573 JLINK_ReadReg(FPS1)
T2B70 003:353.582 - 0.008ms returns 0x00000000
T2B70 003:353.592 JLINK_ReadReg(FPS2)
T2B70 003:353.601 - 0.008ms returns 0x00000000
T2B70 003:353.610 JLINK_ReadReg(FPS3)
T2B70 003:353.619 - 0.008ms returns 0x00000000
T2B70 003:353.628 JLINK_ReadReg(FPS4)
T2B70 003:353.637 - 0.008ms returns 0x00000000
T2B70 003:353.646 JLINK_ReadReg(FPS5)
T2B70 003:353.655 - 0.008ms returns 0x00000000
T2B70 003:353.664 JLINK_ReadReg(FPS6)
T2B70 003:353.673 - 0.008ms returns 0x00000000
T2B70 003:353.682 JLINK_ReadReg(FPS7)
T2B70 003:353.691 - 0.008ms returns 0x00000000
T2B70 003:353.700 JLINK_ReadReg(FPS8)
T2B70 003:353.709 - 0.008ms returns 0x00000000
T2B70 003:353.718 JLINK_ReadReg(FPS9)
T2B70 003:353.727 - 0.008ms returns 0x00000000
T2B70 003:353.736 JLINK_ReadReg(FPS10)
T2B70 003:353.745 - 0.008ms returns 0x00000000
T2B70 003:353.754 JLINK_ReadReg(FPS11)
T2B70 003:353.762 - 0.008ms returns 0x00000000
T2B70 003:353.772 JLINK_ReadReg(FPS12)
T2B70 003:353.780 - 0.008ms returns 0x00000000
T2B70 003:353.790 JLINK_ReadReg(FPS13)
T2B70 003:353.798 - 0.008ms returns 0x00000000
T2B70 003:353.808 JLINK_ReadReg(FPS14)
T2B70 003:353.816 - 0.008ms returns 0x00000000
T2B70 003:353.826 JLINK_ReadReg(FPS15)
T2B70 003:353.834 - 0.008ms returns 0x00000000
T2B70 003:353.844 JLINK_ReadReg(FPS16)
T2B70 003:353.852 - 0.008ms returns 0x00000000
T2B70 003:353.862 JLINK_ReadReg(FPS17)
T2B70 003:353.870 - 0.008ms returns 0x00000000
T2B70 003:353.880 JLINK_ReadReg(FPS18)
T2B70 003:353.888 - 0.008ms returns 0x00000000
T2B70 003:353.908 JLINK_ReadReg(FPS19)
T2B70 003:353.917 - 0.008ms returns 0x00000000
T2B70 003:353.926 JLINK_ReadReg(FPS20)
T2B70 003:353.935 - 0.008ms returns 0x00000000
T2B70 003:353.944 JLINK_ReadReg(FPS21)
T2B70 003:353.953 - 0.008ms returns 0x00000000
T2B70 003:353.964 JLINK_ReadReg(FPS22)
T2B70 003:353.973 - 0.008ms returns 0x00000000
T2B70 003:353.983 JLINK_ReadReg(FPS23)
T2B70 003:353.991 - 0.008ms returns 0x00000000
T2B70 003:354.000 JLINK_ReadReg(FPS24)
T2B70 003:354.009 - 0.008ms returns 0x00000000
T2B70 003:354.018 JLINK_ReadReg(FPS25)
T2B70 003:354.027 - 0.008ms returns 0x00000000
T2B70 003:354.037 JLINK_ReadReg(FPS26)
T2B70 003:354.045 - 0.008ms returns 0x00000000
T2B70 003:354.055 JLINK_ReadReg(FPS27)
T2B70 003:354.063 - 0.008ms returns 0x00000000
T2B70 003:354.073 JLINK_ReadReg(FPS28)
T2B70 003:354.081 - 0.008ms returns 0x00000000
T2B70 003:354.091 JLINK_ReadReg(FPS29)
T2B70 003:354.100 - 0.008ms returns 0x00000000
T2B70 003:354.109 JLINK_ReadReg(FPS30)
T2B70 003:354.118 - 0.008ms returns 0x00000000
T2B70 003:354.127 JLINK_ReadReg(FPS31)
T2B70 003:354.136 - 0.008ms returns 0x00000000
T2B70 003:443.652 JLINK_ReadMemEx(0x200008A4, 0x4 Bytes, Flags = 0x02000000)
T2B70 003:443.695   CPU_ReadMem(64 bytes @ 0x20000880)
T2B70 003:444.257    -- Updating C cache (64 bytes @ 0x20000880)
T2B70 003:444.279    -- Read from C cache (4 bytes @ 0x200008A4)
T2B70 003:444.292   Data:  60 58 00 20
T2B70 003:444.304 - 0.653ms returns 4 (0x4)
T2B70 003:444.459 JLINK_ReadMemEx(0x200008A4, 0x4 Bytes, Flags = 0x02000000)
T2B70 003:444.475    -- Read from C cache (4 bytes @ 0x200008A4)
T2B70 003:444.487   Data:  60 58 00 20
T2B70 003:444.499 - 0.040ms returns 4 (0x4)
T2B70 003:444.537 JLINK_ReadMemEx(0x200008A4, 0x4 Bytes, Flags = 0x02000000)
T2B70 003:444.547    -- Read from C cache (4 bytes @ 0x200008A4)
T2B70 003:444.570   Data:  60 58 00 20
T2B70 003:444.582 - 0.045ms returns 4 (0x4)
T2B70 003:483.347 JLINK_ReadMemEx(0x20000824, 0x4 Bytes, Flags = 0x02000000)
T2B70 003:483.391   CPU_ReadMem(64 bytes @ 0x20000800)
T2B70 003:483.929    -- Updating C cache (64 bytes @ 0x20000800)
T2B70 003:483.952    -- Read from C cache (4 bytes @ 0x20000824)
T2B70 003:483.964   Data:  A0 07 00 20
T2B70 003:483.977 - 0.631ms returns 4 (0x4)
T2B70 003:484.033 JLINK_ReadMemEx(0x20000824, 0x4 Bytes, Flags = 0x02000000)
T2B70 003:484.051    -- Read from C cache (4 bytes @ 0x20000824)
T2B70 003:484.066   Data:  A0 07 00 20
T2B70 003:484.078 - 0.045ms returns 4 (0x4)
T2B70 003:484.110 JLINK_ReadMemEx(0x20000824, 0x4 Bytes, Flags = 0x02000000)
T2B70 003:484.121    -- Read from C cache (4 bytes @ 0x20000824)
T2B70 003:484.132   Data:  A0 07 00 20
T2B70 003:484.144 - 0.034ms returns 4 (0x4)
T5EFC 003:592.644 JLINK_ReadMemEx(0x08000234, 0x2 Bytes, Flags = 0x02000000)
T5EFC 003:592.679    -- Read from C cache (2 bytes @ 0x08000234)
T5EFC 003:592.692   Data:  09 48
T5EFC 003:592.705 - 0.062ms returns 2 (0x2)
T5EFC 003:592.717 JLINK_HasError()
T5EFC 003:592.730 JLINK_SetBPEx(Addr = 0x0800928C, Type = 0xFFFFFFF2)
T5EFC 003:592.744 - 0.013ms returns 0x00000001
T5EFC 003:592.754 JLINK_HasError()
T5EFC 003:592.764 JLINK_SetBPEx(Addr = 0x08006A20, Type = 0xFFFFFFF2)
T5EFC 003:592.773 - 0.009ms returns 0x00000002
T5EFC 003:592.783 JLINK_HasError()
T5EFC 003:592.793 JLINK_SetBPEx(Addr = 0x08006320, Type = 0xFFFFFFF2)
T5EFC 003:592.801 - 0.008ms returns 0x00000003
T5EFC 003:592.811 JLINK_HasError()
T5EFC 003:592.821 JLINK_HasError()
T5EFC 003:592.831 JLINK_Go()
T5EFC 003:592.847   CPU_WriteMem(4 bytes @ 0xE0002000)
T5EFC 003:593.176   CPU_WriteMem(4 bytes @ 0xE0002000)
T5EFC 003:593.464   CPU_WriteMem(4 bytes @ 0xE0002000)
T5EFC 003:593.757   CPU_ReadMem(4 bytes @ 0xE0001000)
T5EFC 003:594.045   CPU_WriteMem(4 bytes @ 0xE0002008)
T5EFC 003:594.075   CPU_WriteMem(4 bytes @ 0xE000200C)
T5EFC 003:594.093   CPU_WriteMem(4 bytes @ 0xE0002010)
T5EFC 003:594.109   CPU_WriteMem(4 bytes @ 0xE0002014)
T5EFC 003:594.126   CPU_WriteMem(4 bytes @ 0xE0002018)
T5EFC 003:594.142   CPU_WriteMem(4 bytes @ 0xE000201C)
T5EFC 003:599.059   CPU_WriteMem(4 bytes @ 0xE0001004)
T5EFC 003:600.626   Memory map 'after startup completion point' is active
T5EFC 003:600.653 - 7.821ms
T5EFC 003:700.962 JLINK_HasError()
T5EFC 003:701.001 JLINK_IsHalted()
T5EFC 003:702.970 - 1.969ms returns TRUE
T5EFC 003:702.998 JLINK_HasError()
T5EFC 003:703.016 JLINK_Halt()
T5EFC 003:703.034 - 0.017ms returns 0x00
T5EFC 003:703.052 JLINK_IsHalted()
T5EFC 003:703.067 - 0.015ms returns TRUE
T5EFC 003:703.082 JLINK_IsHalted()
T5EFC 003:703.095 - 0.013ms returns TRUE
T5EFC 003:703.111 JLINK_IsHalted()
T5EFC 003:703.125 - 0.014ms returns TRUE
T5EFC 003:703.146 JLINK_HasError()
T5EFC 003:703.164 JLINK_ReadReg(R15 (PC))
T5EFC 003:703.184 - 0.020ms returns 0x08006A20
T5EFC 003:703.196 JLINK_ReadReg(XPSR)
T5EFC 003:703.211 - 0.015ms returns 0x21000000
T5EFC 003:703.234 JLINK_HasError()
T5EFC 003:703.256 JLINK_ClrBPEx(BPHandle = 0x00000001)
T5EFC 003:703.268 - 0.011ms returns 0x00
T5EFC 003:703.278 JLINK_HasError()
T5EFC 003:703.288 JLINK_ClrBPEx(BPHandle = 0x00000002)
T5EFC 003:703.297 - 0.008ms returns 0x00
T5EFC 003:703.307 JLINK_HasError()
T5EFC 003:703.317 JLINK_ClrBPEx(BPHandle = 0x00000003)
T5EFC 003:703.325 - 0.008ms returns 0x00
T5EFC 003:703.335 JLINK_HasError()
T5EFC 003:703.345 JLINK_HasError()
T5EFC 003:703.355 JLINK_ReadMemU32(0xE000ED30, 0x1 Items)
T5EFC 003:703.372   CPU_ReadMem(4 bytes @ 0xE000ED30)
T5EFC 003:703.673   Data:  02 00 00 00
T5EFC 003:703.693 - 0.337ms returns 1 (0x1)
T5EFC 003:703.707 JLINK_ReadMemU32(0xE0001028, 0x1 Items)
T5EFC 003:703.721   CPU_ReadMem(4 bytes @ 0xE0001028)
T5EFC 003:704.050   Data:  00 00 00 00
T5EFC 003:704.076   Debug reg: DWT_FUNC[0]
T5EFC 003:704.090 - 0.383ms returns 1 (0x1)
T5EFC 003:704.105 JLINK_ReadMemU32(0xE0001038, 0x1 Items)
T5EFC 003:704.124   CPU_ReadMem(4 bytes @ 0xE0001038)
T5EFC 003:704.625   Data:  00 02 00 00
T5EFC 003:704.643   Debug reg: DWT_FUNC[1]
T5EFC 003:704.655 - 0.550ms returns 1 (0x1)
T5EFC 003:704.668 JLINK_ReadMemU32(0xE0001048, 0x1 Items)
T5EFC 003:704.683   CPU_ReadMem(4 bytes @ 0xE0001048)
T5EFC 003:704.940   Data:  00 00 00 00
T5EFC 003:704.962   Debug reg: DWT_FUNC[2]
T5EFC 003:704.974 - 0.306ms returns 1 (0x1)
T5EFC 003:704.987 JLINK_ReadMemU32(0xE0001058, 0x1 Items)
T5EFC 003:705.001   CPU_ReadMem(4 bytes @ 0xE0001058)
T5EFC 003:705.267   Data:  00 00 00 00
T5EFC 003:705.285   Debug reg: DWT_FUNC[3]
T5EFC 003:705.302 - 0.315ms returns 1 (0x1)
T5EFC 003:705.356 JLINK_HasError()
T5EFC 003:705.369 JLINK_ReadReg(R0)
T5EFC 003:705.381 - 0.011ms returns 0x00000000
T5EFC 003:705.401 JLINK_ReadReg(R1)
T5EFC 003:705.410 - 0.008ms returns 0x200089A0
T5EFC 003:705.420 JLINK_ReadReg(R2)
T5EFC 003:705.428 - 0.008ms returns 0x00000000
T5EFC 003:705.438 JLINK_ReadReg(R3)
T5EFC 003:705.446 - 0.008ms returns 0x00000000
T5EFC 003:705.456 JLINK_ReadReg(R4)
T5EFC 003:705.485 - 0.029ms returns 0x0800BE98
T5EFC 003:705.495 JLINK_ReadReg(R5)
T5EFC 003:705.514 - 0.018ms returns 0x0800BEA8
T5EFC 003:705.524 JLINK_ReadReg(R6)
T5EFC 003:705.532 - 0.008ms returns 0x00000000
T5EFC 003:705.542 JLINK_ReadReg(R7)
T5EFC 003:705.551 - 0.008ms returns 0x00000000
T5EFC 003:705.561 JLINK_ReadReg(R8)
T5EFC 003:705.569 - 0.008ms returns 0x00000000
T5EFC 003:705.579 JLINK_ReadReg(R9)
T5EFC 003:705.587 - 0.008ms returns 0x00000000
T5EFC 003:705.601 JLINK_ReadReg(R10)
T5EFC 003:705.610 - 0.008ms returns 0x0800BE98
T5EFC 003:705.620 JLINK_ReadReg(R11)
T5EFC 003:705.639 - 0.019ms returns 0x00000000
T5EFC 003:705.649 JLINK_ReadReg(R12)
T5EFC 003:705.658 - 0.008ms returns 0x00000000
T5EFC 003:705.668 JLINK_ReadReg(R13 (SP))
T5EFC 003:705.676 - 0.008ms returns 0x20008960
T5EFC 003:705.686 JLINK_ReadReg(R14)
T5EFC 003:705.699 - 0.012ms returns 0x080065D1
T5EFC 003:705.709 JLINK_ReadReg(R15 (PC))
T5EFC 003:705.718 - 0.009ms returns 0x08006A20
T5EFC 003:705.728 JLINK_ReadReg(XPSR)
T5EFC 003:705.738 - 0.009ms returns 0x21000000
T5EFC 003:705.748 JLINK_ReadReg(MSP)
T5EFC 003:705.756 - 0.008ms returns 0x20008960
T5EFC 003:705.766 JLINK_ReadReg(PSP)
T5EFC 003:705.774 - 0.008ms returns 0x00000000
T5EFC 003:705.784 JLINK_ReadReg(CFBP)
T5EFC 003:705.793 - 0.008ms returns 0x04000000
T5EFC 003:705.803 JLINK_ReadReg(FPSCR)
T5EFC 003:708.636 - 2.833ms returns 0x03000000
T5EFC 003:708.660 JLINK_ReadReg(FPS0)
T5EFC 003:708.672 - 0.011ms returns 0x40800000
T5EFC 003:708.684 JLINK_ReadReg(FPS1)
T5EFC 003:708.694 - 0.009ms returns 0x40A00000
T5EFC 003:708.707 JLINK_ReadReg(FPS2)
T5EFC 003:708.715 - 0.008ms returns 0x40C00000
T5EFC 003:708.727 JLINK_ReadReg(FPS3)
T5EFC 003:708.735 - 0.008ms returns 0x40800000
T5EFC 003:708.748 JLINK_ReadReg(FPS4)
T5EFC 003:708.757 - 0.008ms returns 0x40A00000
T5EFC 003:708.778 JLINK_ReadReg(FPS5)
T5EFC 003:708.794 - 0.016ms returns 0x40C00000
T5EFC 003:708.816 JLINK_ReadReg(FPS6)
T5EFC 003:708.830 - 0.013ms returns 0x00000000
T5EFC 003:708.844 JLINK_ReadReg(FPS7)
T5EFC 003:708.857 - 0.013ms returns 0x00000000
T5EFC 003:708.877 JLINK_ReadReg(FPS8)
T5EFC 003:708.890 - 0.012ms returns 0x00000000
T5EFC 003:708.907 JLINK_ReadReg(FPS9)
T5EFC 003:708.920 - 0.013ms returns 0x00000000
T5EFC 003:708.941 JLINK_ReadReg(FPS10)
T5EFC 003:708.954 - 0.012ms returns 0x00000000
T5EFC 003:708.987 JLINK_ReadReg(FPS11)
T5EFC 003:709.001 - 0.014ms returns 0x00000000
T5EFC 003:709.018 JLINK_ReadReg(FPS12)
T5EFC 003:709.031 - 0.012ms returns 0x00000000
T5EFC 003:709.052 JLINK_ReadReg(FPS13)
T5EFC 003:709.067 - 0.015ms returns 0x00000000
T5EFC 003:709.088 JLINK_ReadReg(FPS14)
T5EFC 003:709.110 - 0.021ms returns 0x00000000
T5EFC 003:709.132 JLINK_ReadReg(FPS15)
T5EFC 003:709.146 - 0.013ms returns 0x00000000
T5EFC 003:709.164 JLINK_ReadReg(FPS16)
T5EFC 003:709.176 - 0.011ms returns 0x00000000
T5EFC 003:709.193 JLINK_ReadReg(FPS17)
T5EFC 003:709.205 - 0.011ms returns 0x00000000
T5EFC 003:709.221 JLINK_ReadReg(FPS18)
T5EFC 003:709.234 - 0.012ms returns 0x00000000
T5EFC 003:709.251 JLINK_ReadReg(FPS19)
T5EFC 003:709.264 - 0.012ms returns 0x00000000
T5EFC 003:709.279 JLINK_ReadReg(FPS20)
T5EFC 003:709.291 - 0.012ms returns 0x00000000
T5EFC 003:709.306 JLINK_ReadReg(FPS21)
T5EFC 003:709.318 - 0.011ms returns 0x00000000
T5EFC 003:709.336 JLINK_ReadReg(FPS22)
T5EFC 003:709.348 - 0.012ms returns 0x00000000
T5EFC 003:709.366 JLINK_ReadReg(FPS23)
T5EFC 003:709.378 - 0.011ms returns 0x00000000
T5EFC 003:709.400 JLINK_ReadReg(FPS24)
T5EFC 003:709.416 - 0.015ms returns 0x00000000
T5EFC 003:709.433 JLINK_ReadReg(FPS25)
T5EFC 003:709.445 - 0.011ms returns 0x00000000
T5EFC 003:709.462 JLINK_ReadReg(FPS26)
T5EFC 003:709.474 - 0.011ms returns 0x00000000
T5EFC 003:709.491 JLINK_ReadReg(FPS27)
T5EFC 003:709.504 - 0.012ms returns 0x00000000
T5EFC 003:709.521 JLINK_ReadReg(FPS28)
T5EFC 003:709.533 - 0.011ms returns 0x00000000
T5EFC 003:709.550 JLINK_ReadReg(FPS29)
T5EFC 003:709.562 - 0.011ms returns 0x00000000
T5EFC 003:709.579 JLINK_ReadReg(FPS30)
T5EFC 003:709.591 - 0.011ms returns 0x00000000
T5EFC 003:709.608 JLINK_ReadReg(FPS31)
T5EFC 003:709.620 - 0.011ms returns 0x00000000
T5EFC 003:709.644 JLINK_ReadMemEx(0x20004900, 0x4 Bytes, Flags = 0x02000000)
T5EFC 003:709.669   CPU_ReadMem(64 bytes @ 0x20004900)
T5EFC 003:710.190    -- Updating C cache (64 bytes @ 0x20004900)
T5EFC 003:710.210    -- Read from C cache (4 bytes @ 0x20004900)
T5EFC 003:710.222   Data:  00 00 00 00
T5EFC 003:710.235 - 0.590ms returns 4 (0x4)
T2B70 003:710.617 JLINK_ReadMemEx(0x200008A4, 0x4 Bytes, Flags = 0x02000000)
T2B70 003:710.640   CPU_ReadMem(64 bytes @ 0x20000880)
T2B70 003:711.147    -- Updating C cache (64 bytes @ 0x20000880)
T2B70 003:711.167    -- Read from C cache (4 bytes @ 0x200008A4)
T2B70 003:711.179   Data:  00 00 00 00
T2B70 003:711.191 - 0.575ms returns 4 (0x4)
T2B70 003:724.635 JLINK_ReadMemEx(0x20000824, 0x4 Bytes, Flags = 0x02000000)
T2B70 003:724.674   CPU_ReadMem(64 bytes @ 0x20000800)
T2B70 003:725.198    -- Updating C cache (64 bytes @ 0x20000800)
T2B70 003:725.219    -- Read from C cache (4 bytes @ 0x20000824)
T2B70 003:725.231   Data:  00 00 00 00
T2B70 003:725.244 - 0.609ms returns 4 (0x4)
T2B70 003:725.690 JLINK_ReadMemEx(0x08006A20, 0x3C Bytes, Flags = 0x02000000)
T2B70 003:725.710   CPU_ReadMem(128 bytes @ 0x08006A00)
T2B70 003:726.524    -- Updating C cache (128 bytes @ 0x08006A00)
T2B70 003:726.544    -- Read from C cache (60 bytes @ 0x08006A20)
T2B70 003:726.558   Data:  45 F2 71 63 C0 F6 00 03 00 22 01 92 10 46 11 46 ...
T2B70 003:726.570 - 0.880ms returns 60 (0x3C)
T2B70 003:726.583 JLINK_ReadMemEx(0x08006A20, 0x2 Bytes, Flags = 0x02000000)
T2B70 003:726.593    -- Read from C cache (2 bytes @ 0x08006A20)
T2B70 003:726.605   Data:  45 F2
T2B70 003:726.617 - 0.033ms returns 2 (0x2)
T2B70 003:726.628 JLINK_ReadMemEx(0x08006A22, 0x2 Bytes, Flags = 0x02000000)
T2B70 003:726.637    -- Read from C cache (2 bytes @ 0x08006A22)
T2B70 003:726.648   Data:  71 63
T2B70 003:726.660 - 0.032ms returns 2 (0x2)
T2B70 003:726.680 JLINK_ReadMemEx(0x08006A24, 0x3C Bytes, Flags = 0x02000000)
T2B70 003:726.689    -- Read from C cache (60 bytes @ 0x08006A24)
T2B70 003:726.702   Data:  C0 F6 00 03 00 22 01 92 10 46 11 46 FA F7 46 F9 ...
T2B70 003:726.713 - 0.033ms returns 60 (0x3C)
T2B70 003:726.723 JLINK_ReadMemEx(0x08006A24, 0x2 Bytes, Flags = 0x02000000)
T2B70 003:726.731    -- Read from C cache (2 bytes @ 0x08006A24)
T2B70 003:726.743   Data:  C0 F6
T2B70 003:726.755 - 0.031ms returns 2 (0x2)
T2B70 003:726.765 JLINK_ReadMemEx(0x08006A26, 0x2 Bytes, Flags = 0x02000000)
T2B70 003:726.773    -- Read from C cache (2 bytes @ 0x08006A26)
T2B70 003:726.785   Data:  00 03
T2B70 003:726.796 - 0.031ms returns 2 (0x2)
T5EFC 004:501.164 JLINK_ReadMemEx(0x08006A20, 0x2 Bytes, Flags = 0x02000000)
T5EFC 004:501.197    -- Read from C cache (2 bytes @ 0x08006A20)
T5EFC 004:501.211   Data:  45 F2
T5EFC 004:501.223 - 0.060ms returns 2 (0x2)
T5EFC 004:501.235 JLINK_HasError()
T5EFC 004:501.249 JLINK_Step()
T5EFC 004:501.529    -- Read from C cache (2 bytes @ 0x08006A20)
T5EFC 004:501.558   CPU_ReadMem(4 bytes @ 0xE000ED18)
T5EFC 004:501.917   CPU_WriteMem(4 bytes @ 0xE000ED18)
T5EFC 004:502.187   CPU_ReadMem(4 bytes @ 0xE000ED18)
T5EFC 004:502.446   CPU_WriteMem(4 bytes @ 0xE000ED18)
T5EFC 004:502.815   CPU_ReadMem(4 bytes @ 0xE0001004)
T5EFC 004:503.101    -- Read from C cache (2 bytes @ 0x08006A22)
T5EFC 004:503.126   -- Simulated
T5EFC 004:503.139 - 1.889ms returns 0
T5EFC 004:503.214 JLINK_HasError()
T5EFC 004:503.229 JLINK_ReadReg(R15 (PC))
T5EFC 004:503.242 - 0.012ms returns 0x08006A24
T5EFC 004:503.259 JLINK_ReadReg(XPSR)
T5EFC 004:503.275 - 0.015ms returns 0x21000000
T5EFC 004:503.295 JLINK_HasError()
T5EFC 004:503.310 JLINK_SetBPEx(Addr = 0x08006A20, Type = 0xFFFFFFF2)
T5EFC 004:503.331 - 0.020ms returns 0x00000004
T5EFC 004:503.348 JLINK_HasError()
T5EFC 004:503.358 JLINK_SetBPEx(Addr = 0x08006320, Type = 0xFFFFFFF2)
T5EFC 004:503.367 - 0.009ms returns 0x00000005
T5EFC 004:503.377 JLINK_HasError()
T5EFC 004:503.387 JLINK_HasError()
T5EFC 004:503.397 JLINK_Go()
T5EFC 004:503.411   CPU_WriteMem(4 bytes @ 0xE0002000)
T5EFC 004:503.780   CPU_WriteMem(4 bytes @ 0xE0002000)
T5EFC 004:504.072   CPU_ReadMem(4 bytes @ 0xE0001000)
T5EFC 004:504.344   CPU_WriteMem(4 bytes @ 0xE0002008)
T5EFC 004:504.363   CPU_WriteMem(4 bytes @ 0xE000200C)
T5EFC 004:504.376   CPU_WriteMem(4 bytes @ 0xE0002010)
T5EFC 004:504.938   CPU_WriteMem(4 bytes @ 0xE0001004)
T5EFC 004:505.900 - 2.502ms
T5EFC 004:606.524 JLINK_HasError()
T5EFC 004:606.557 JLINK_IsHalted()
T5EFC 004:612.291 - 5.731ms returns TRUE
T5EFC 004:612.319 JLINK_HasError()
T5EFC 004:612.331 JLINK_Halt()
T5EFC 004:612.339 - 0.008ms returns 0x00
T5EFC 004:612.349 JLINK_IsHalted()
T5EFC 004:612.358 - 0.008ms returns TRUE
T5EFC 004:612.367 JLINK_IsHalted()
T5EFC 004:612.375 - 0.007ms returns TRUE
T5EFC 004:612.385 JLINK_IsHalted()
T5EFC 004:612.393 - 0.008ms returns TRUE
T5EFC 004:612.403 JLINK_HasError()
T5EFC 004:612.414 JLINK_ReadReg(R15 (PC))
T5EFC 004:612.425 - 0.011ms returns 0x08006320
T5EFC 004:612.436 JLINK_ReadReg(XPSR)
T5EFC 004:612.444 - 0.008ms returns 0x61000000
T5EFC 004:612.460 JLINK_HasError()
T5EFC 004:612.470 JLINK_ClrBPEx(BPHandle = 0x00000004)
T5EFC 004:612.479 - 0.008ms returns 0x00
T5EFC 004:612.489 JLINK_HasError()
T5EFC 004:612.499 JLINK_ClrBPEx(BPHandle = 0x00000005)
T5EFC 004:612.507 - 0.008ms returns 0x00
T5EFC 004:612.517 JLINK_HasError()
T5EFC 004:612.527 JLINK_HasError()
T5EFC 004:612.537 JLINK_ReadMemU32(0xE000ED30, 0x1 Items)
T5EFC 004:612.552   CPU_ReadMem(4 bytes @ 0xE000ED30)
T5EFC 004:612.816   Data:  02 00 00 00
T5EFC 004:612.837 - 0.299ms returns 1 (0x1)
T5EFC 004:612.850 JLINK_ReadMemU32(0xE0001028, 0x1 Items)
T5EFC 004:612.865   CPU_ReadMem(4 bytes @ 0xE0001028)
T5EFC 004:613.121   Data:  00 00 00 00
T5EFC 004:613.141   Debug reg: DWT_FUNC[0]
T5EFC 004:613.153 - 0.303ms returns 1 (0x1)
T5EFC 004:613.166 JLINK_ReadMemU32(0xE0001038, 0x1 Items)
T5EFC 004:613.180   CPU_ReadMem(4 bytes @ 0xE0001038)
T5EFC 004:613.429   Data:  00 02 00 00
T5EFC 004:613.447   Debug reg: DWT_FUNC[1]
T5EFC 004:613.459 - 0.293ms returns 1 (0x1)
T5EFC 004:613.471 JLINK_ReadMemU32(0xE0001048, 0x1 Items)
T5EFC 004:613.485   CPU_ReadMem(4 bytes @ 0xE0001048)
T5EFC 004:613.734   Data:  00 00 00 00
T5EFC 004:613.751   Debug reg: DWT_FUNC[2]
T5EFC 004:613.763 - 0.291ms returns 1 (0x1)
T5EFC 004:613.776 JLINK_ReadMemU32(0xE0001058, 0x1 Items)
T5EFC 004:613.789   CPU_ReadMem(4 bytes @ 0xE0001058)
T5EFC 004:614.041   Data:  00 00 00 00
T5EFC 004:614.059   Debug reg: DWT_FUNC[3]
T5EFC 004:614.071 - 0.294ms returns 1 (0x1)
T5EFC 004:614.123 JLINK_HasError()
T5EFC 004:614.136 JLINK_ReadReg(R0)
T5EFC 004:614.147 - 0.011ms returns 0x20000788
T5EFC 004:614.157 JLINK_ReadReg(R1)
T5EFC 004:614.166 - 0.009ms returns 0x20004C38
T5EFC 004:614.177 JLINK_ReadReg(R2)
T5EFC 004:614.185 - 0.008ms returns 0x00000000
T5EFC 004:614.195 JLINK_ReadReg(R3)
T5EFC 004:614.203 - 0.008ms returns 0x00000003
T5EFC 004:614.213 JLINK_ReadReg(R4)
T5EFC 004:614.222 - 0.008ms returns 0x00000000
T5EFC 004:614.242 JLINK_ReadReg(R5)
T5EFC 004:614.251 - 0.008ms returns 0x00000000
T5EFC 004:614.261 JLINK_ReadReg(R6)
T5EFC 004:614.269 - 0.008ms returns 0x00000000
T5EFC 004:614.279 JLINK_ReadReg(R7)
T5EFC 004:614.287 - 0.008ms returns 0x00000000
T5EFC 004:614.297 JLINK_ReadReg(R8)
T5EFC 004:614.305 - 0.008ms returns 0x00000000
T5EFC 004:614.315 JLINK_ReadReg(R9)
T5EFC 004:614.323 - 0.008ms returns 0x00000000
T5EFC 004:614.394 JLINK_ReadReg(R10)
T5EFC 004:614.403 - 0.009ms returns 0x00000000
T5EFC 004:614.413 JLINK_ReadReg(R11)
T5EFC 004:614.422 - 0.008ms returns 0x00000000
T5EFC 004:614.431 JLINK_ReadReg(R12)
T5EFC 004:614.440 - 0.008ms returns 0x20004C38
T5EFC 004:614.450 JLINK_ReadReg(R13 (SP))
T5EFC 004:614.458 - 0.008ms returns 0x20001F50
T5EFC 004:614.468 JLINK_ReadReg(R14)
T5EFC 004:614.476 - 0.008ms returns 0x08008FEB
T5EFC 004:614.487 JLINK_ReadReg(R15 (PC))
T5EFC 004:614.495 - 0.008ms returns 0x08006320
T5EFC 004:614.505 JLINK_ReadReg(XPSR)
T5EFC 004:614.513 - 0.008ms returns 0x61000000
T5EFC 004:614.523 JLINK_ReadReg(MSP)
T5EFC 004:614.532 - 0.008ms returns 0x20008BF8
T5EFC 004:614.541 JLINK_ReadReg(PSP)
T5EFC 004:614.550 - 0.008ms returns 0x20001F50
T5EFC 004:614.560 JLINK_ReadReg(CFBP)
T5EFC 004:614.568 - 0.008ms returns 0x06000000
T5EFC 004:614.578 JLINK_ReadReg(FPSCR)
T5EFC 004:617.412 - 2.833ms returns 0x60000000
T5EFC 004:617.431 JLINK_ReadReg(FPS0)
T5EFC 004:617.442 - 0.011ms returns 0x00000000
T5EFC 004:617.453 JLINK_ReadReg(FPS1)
T5EFC 004:617.462 - 0.008ms returns 0xC3340000
T5EFC 004:617.472 JLINK_ReadReg(FPS2)
T5EFC 004:617.481 - 0.008ms returns 0x00000000
T5EFC 004:617.491 JLINK_ReadReg(FPS3)
T5EFC 004:617.499 - 0.008ms returns 0x3F800000
T5EFC 004:617.509 JLINK_ReadReg(FPS4)
T5EFC 004:617.517 - 0.008ms returns 0x00000000
T5EFC 004:617.527 JLINK_ReadReg(FPS5)
T5EFC 004:617.536 - 0.008ms returns 0x3F800000
T5EFC 004:617.545 JLINK_ReadReg(FPS6)
T5EFC 004:617.554 - 0.008ms returns 0x00000000
T5EFC 004:617.564 JLINK_ReadReg(FPS7)
T5EFC 004:617.572 - 0.008ms returns 0x00000000
T5EFC 004:617.582 JLINK_ReadReg(FPS8)
T5EFC 004:617.590 - 0.008ms returns 0x00000000
T5EFC 004:617.600 JLINK_ReadReg(FPS9)
T5EFC 004:617.608 - 0.008ms returns 0x00000000
T5EFC 004:617.618 JLINK_ReadReg(FPS10)
T5EFC 004:617.627 - 0.008ms returns 0x00000000
T5EFC 004:617.636 JLINK_ReadReg(FPS11)
T5EFC 004:617.645 - 0.008ms returns 0x00000000
T5EFC 004:617.654 JLINK_ReadReg(FPS12)
T5EFC 004:617.663 - 0.008ms returns 0x00000000
T5EFC 004:617.673 JLINK_ReadReg(FPS13)
T5EFC 004:617.681 - 0.008ms returns 0x00000000
T5EFC 004:617.691 JLINK_ReadReg(FPS14)
T5EFC 004:617.699 - 0.008ms returns 0x00000000
T5EFC 004:617.709 JLINK_ReadReg(FPS15)
T5EFC 004:617.718 - 0.008ms returns 0x00000000
T5EFC 004:617.727 JLINK_ReadReg(FPS16)
T5EFC 004:617.736 - 0.008ms returns 0x00000000
T5EFC 004:617.746 JLINK_ReadReg(FPS17)
T5EFC 004:617.754 - 0.008ms returns 0x00000000
T5EFC 004:617.764 JLINK_ReadReg(FPS18)
T5EFC 004:617.772 - 0.008ms returns 0x00000000
T5EFC 004:617.785 JLINK_ReadReg(FPS19)
T5EFC 004:617.798 - 0.013ms returns 0x00000000
T5EFC 004:617.812 JLINK_ReadReg(FPS20)
T5EFC 004:617.824 - 0.011ms returns 0x00000000
T5EFC 004:617.837 JLINK_ReadReg(FPS21)
T5EFC 004:617.851 - 0.013ms returns 0x00000000
T5EFC 004:617.868 JLINK_ReadReg(FPS22)
T5EFC 004:617.880 - 0.012ms returns 0x00000000
T5EFC 004:617.894 JLINK_ReadReg(FPS23)
T5EFC 004:617.905 - 0.011ms returns 0x00000000
T5EFC 004:617.921 JLINK_ReadReg(FPS24)
T5EFC 004:617.933 - 0.011ms returns 0x00000000
T5EFC 004:617.943 JLINK_ReadReg(FPS25)
T5EFC 004:617.951 - 0.008ms returns 0x00000000
T5EFC 004:617.961 JLINK_ReadReg(FPS26)
T5EFC 004:617.969 - 0.008ms returns 0x00000000
T5EFC 004:617.979 JLINK_ReadReg(FPS27)
T5EFC 004:617.987 - 0.008ms returns 0x00000000
T5EFC 004:617.997 JLINK_ReadReg(FPS28)
T5EFC 004:618.005 - 0.008ms returns 0x00000000
T5EFC 004:618.015 JLINK_ReadReg(FPS29)
T5EFC 004:618.023 - 0.008ms returns 0x00000000
T5EFC 004:618.033 JLINK_ReadReg(FPS30)
T5EFC 004:618.042 - 0.008ms returns 0x00000000
T5EFC 004:618.051 JLINK_ReadReg(FPS31)
T5EFC 004:618.060 - 0.008ms returns 0x00000000
T5EFC 004:618.075 JLINK_ReadMemEx(0x20004900, 0x4 Bytes, Flags = 0x02000000)
T5EFC 004:618.089   CPU_ReadMem(64 bytes @ 0x20004900)
T5EFC 004:618.618    -- Updating C cache (64 bytes @ 0x20004900)
T5EFC 004:618.646    -- Read from C cache (4 bytes @ 0x20004900)
T5EFC 004:618.670   Data:  05 00 00 00
T5EFC 004:618.688 - 0.613ms returns 4 (0x4)
T5EFC 004:618.704 JLINK_ReadMemEx(0x20000C58, 0x4 Bytes, Flags = 0x02000000)
T5EFC 004:618.718   CPU_ReadMem(64 bytes @ 0x20000C40)
T5EFC 004:619.217    -- Updating C cache (64 bytes @ 0x20000C40)
T5EFC 004:619.236    -- Read from C cache (4 bytes @ 0x20000C58)
T5EFC 004:619.249   Data:  80 1F 00 20
T5EFC 004:619.261 - 0.556ms returns 4 (0x4)
T2B70 004:619.393 JLINK_ReadMemEx(0x200008A4, 0x4 Bytes, Flags = 0x02000000)
T2B70 004:619.415   CPU_ReadMem(64 bytes @ 0x20000880)
T2B70 004:619.948    -- Updating C cache (64 bytes @ 0x20000880)
T2B70 004:619.967    -- Read from C cache (4 bytes @ 0x200008A4)
T2B70 004:619.980   Data:  60 58 00 20
T2B70 004:619.992 - 0.599ms returns 4 (0x4)
T2B70 004:620.589 JLINK_ReadMemEx(0x20001F54, 0x4 Bytes, Flags = 0x02000000)
T2B70 004:620.610   CPU_ReadMem(64 bytes @ 0x20001F40)
T2B70 004:621.130    -- Updating C cache (64 bytes @ 0x20001F40)
T2B70 004:621.149    -- Read from C cache (4 bytes @ 0x20001F54)
T2B70 004:621.161   Data:  88 07 00 20
T2B70 004:621.174 - 0.584ms returns 4 (0x4)
T2B70 004:621.188 JLINK_ReadMemEx(0x2000078C, 0x4 Bytes, Flags = 0x02000000)
T2B70 004:621.201   CPU_ReadMem(64 bytes @ 0x20000780)
T2B70 004:621.695    -- Updating C cache (64 bytes @ 0x20000780)
T2B70 004:621.713    -- Read from C cache (4 bytes @ 0x2000078C)
T2B70 004:621.726   Data:  30 4C 00 20
T2B70 004:621.737 - 0.549ms returns 4 (0x4)
T2B70 004:621.783 JLINK_ReadMemEx(0x20001F54, 0x4 Bytes, Flags = 0x02000000)
T2B70 004:621.796    -- Read from C cache (4 bytes @ 0x20001F54)
T2B70 004:621.808   Data:  88 07 00 20
T2B70 004:621.820 - 0.036ms returns 4 (0x4)
T2B70 004:621.831 JLINK_ReadMemEx(0x2000078C, 0x4 Bytes, Flags = 0x02000000)
T2B70 004:621.840    -- Read from C cache (4 bytes @ 0x2000078C)
T2B70 004:621.852   Data:  30 4C 00 20
T2B70 004:621.864 - 0.032ms returns 4 (0x4)
T2B70 004:632.967 JLINK_ReadMemEx(0x20000824, 0x4 Bytes, Flags = 0x02000000)
T2B70 004:633.009   CPU_ReadMem(64 bytes @ 0x20000800)
T2B70 004:633.539    -- Updating C cache (64 bytes @ 0x20000800)
T2B70 004:633.560    -- Read from C cache (4 bytes @ 0x20000824)
T2B70 004:633.573   Data:  A0 07 00 20
T2B70 004:633.585 - 0.619ms returns 4 (0x4)
T2B70 004:634.046 JLINK_ReadMemEx(0x08006320, 0x3C Bytes, Flags = 0x02000000)
T2B70 004:634.065   CPU_ReadMem(128 bytes @ 0x08006300)
T2B70 004:634.907    -- Updating C cache (128 bytes @ 0x08006300)
T2B70 004:634.926    -- Read from C cache (60 bytes @ 0x08006320)
T2B70 004:634.939   Data:  00 90 40 68 02 F0 64 FB 00 99 48 68 91 ED 02 0A ...
T2B70 004:634.951 - 0.905ms returns 60 (0x3C)
T2B70 004:634.963 JLINK_ReadMemEx(0x08006320, 0x2 Bytes, Flags = 0x02000000)
T2B70 004:634.973    -- Read from C cache (2 bytes @ 0x08006320)
T2B70 004:634.985   Data:  00 90
T2B70 004:634.997 - 0.033ms returns 2 (0x2)
T2B70 004:635.007 JLINK_ReadMemEx(0x08006322, 0x2 Bytes, Flags = 0x02000000)
T2B70 004:635.016    -- Read from C cache (2 bytes @ 0x08006322)
T2B70 004:635.027   Data:  40 68
T2B70 004:635.039 - 0.032ms returns 2 (0x2)
T2B70 004:635.058 JLINK_ReadMemEx(0x08006322, 0x2 Bytes, Flags = 0x02000000)
T2B70 004:635.067    -- Read from C cache (2 bytes @ 0x08006322)
T2B70 004:635.079   Data:  40 68
T2B70 004:635.090 - 0.032ms returns 2 (0x2)
T2B70 004:635.100 JLINK_ReadMemEx(0x08006324, 0x3C Bytes, Flags = 0x02000000)
T2B70 004:635.109    -- Read from C cache (60 bytes @ 0x08006324)
T2B70 004:635.121   Data:  02 F0 64 FB 00 99 48 68 91 ED 02 0A 01 F0 0C FF ...
T2B70 004:635.133 - 0.032ms returns 60 (0x3C)
T2B70 004:635.143 JLINK_ReadMemEx(0x08006324, 0x2 Bytes, Flags = 0x02000000)
T2B70 004:635.151    -- Read from C cache (2 bytes @ 0x08006324)
T2B70 004:635.163   Data:  02 F0
T2B70 004:635.175 - 0.032ms returns 2 (0x2)
T5EFC 005:185.682 JLINK_ReadMemEx(0x08006320, 0x2 Bytes, Flags = 0x02000000)
T5EFC 005:185.710    -- Read from C cache (2 bytes @ 0x08006320)
T5EFC 005:185.723   Data:  00 90
T5EFC 005:185.736 - 0.054ms returns 2 (0x2)
T5EFC 005:185.747 JLINK_HasError()
T5EFC 005:185.761 JLINK_Step()
T5EFC 005:186.062    -- Read from C cache (2 bytes @ 0x08006320)
T5EFC 005:186.083   CPU_ReadMem(4 bytes @ 0xE0001004)
T5EFC 005:186.367   CPU_WriteMem(4 bytes @ 0x20001F50)
T5EFC 005:186.648   -- Simulated
T5EFC 005:186.668 - 0.906ms returns 0
T5EFC 005:186.681 JLINK_HasError()
T5EFC 005:186.693 JLINK_ReadReg(R15 (PC))
T5EFC 005:186.705 - 0.011ms returns 0x08006322
T5EFC 005:186.716 JLINK_ReadReg(XPSR)
T5EFC 005:186.725 - 0.009ms returns 0x61000000
T5EFC 005:186.738 JLINK_HasError()
T5EFC 005:186.749 JLINK_SetBPEx(Addr = 0x08006A20, Type = 0xFFFFFFF2)
T5EFC 005:186.759 - 0.009ms returns 0x00000006
T5EFC 005:186.769 JLINK_HasError()
T5EFC 005:186.778 JLINK_SetBPEx(Addr = 0x08006320, Type = 0xFFFFFFF2)
T5EFC 005:186.787 - 0.008ms returns 0x00000007
T5EFC 005:186.797 JLINK_HasError()
T5EFC 005:186.807 JLINK_HasError()
T5EFC 005:186.817 JLINK_Go()
T5EFC 005:186.828   CPU_WriteMem(4 bytes @ 0xE0002000)
T5EFC 005:187.098   CPU_WriteMem(4 bytes @ 0xE0002000)
T5EFC 005:187.378   CPU_ReadMem(4 bytes @ 0xE0001000)
T5EFC 005:187.662   CPU_WriteMem(4 bytes @ 0xE0001004)
T5EFC 005:188.603 - 1.785ms
T5EFC 005:289.101 JLINK_HasError()
T5EFC 005:289.129 JLINK_IsHalted()
T5EFC 005:290.997 - 1.867ms returns TRUE
T5EFC 005:291.022 JLINK_HasError()
T5EFC 005:291.033 JLINK_Halt()
T5EFC 005:291.042 - 0.008ms returns 0x00
T5EFC 005:291.053 JLINK_IsHalted()
T5EFC 005:291.061 - 0.008ms returns TRUE
T5EFC 005:291.071 JLINK_IsHalted()
T5EFC 005:291.079 - 0.007ms returns TRUE
T5EFC 005:291.088 JLINK_IsHalted()
T5EFC 005:291.096 - 0.007ms returns TRUE
T5EFC 005:291.107 JLINK_HasError()
T5EFC 005:291.118 JLINK_ReadReg(R15 (PC))
T5EFC 005:291.129 - 0.011ms returns 0x08006320
T5EFC 005:291.139 JLINK_ReadReg(XPSR)
T5EFC 005:291.148 - 0.008ms returns 0x61000000
T5EFC 005:291.163 JLINK_HasError()
T5EFC 005:291.173 JLINK_ClrBPEx(BPHandle = 0x00000006)
T5EFC 005:291.182 - 0.009ms returns 0x00
T5EFC 005:291.192 JLINK_HasError()
T5EFC 005:291.202 JLINK_ClrBPEx(BPHandle = 0x00000007)
T5EFC 005:291.210 - 0.008ms returns 0x00
T5EFC 005:291.220 JLINK_HasError()
T5EFC 005:291.229 JLINK_HasError()
T5EFC 005:291.240 JLINK_ReadMemU32(0xE000ED30, 0x1 Items)
T5EFC 005:291.254   CPU_ReadMem(4 bytes @ 0xE000ED30)
T5EFC 005:291.533   Data:  02 00 00 00
T5EFC 005:291.554 - 0.314ms returns 1 (0x1)
T5EFC 005:291.567 JLINK_ReadMemU32(0xE0001028, 0x1 Items)
T5EFC 005:291.581   CPU_ReadMem(4 bytes @ 0xE0001028)
T5EFC 005:291.929   Data:  00 00 00 00
T5EFC 005:291.950   Debug reg: DWT_FUNC[0]
T5EFC 005:291.962 - 0.394ms returns 1 (0x1)
T5EFC 005:291.975 JLINK_ReadMemU32(0xE0001038, 0x1 Items)
T5EFC 005:291.991   CPU_ReadMem(4 bytes @ 0xE0001038)
T5EFC 005:292.249   Data:  00 02 00 00
T5EFC 005:292.268   Debug reg: DWT_FUNC[1]
T5EFC 005:292.280 - 0.305ms returns 1 (0x1)
T5EFC 005:292.293 JLINK_ReadMemU32(0xE0001048, 0x1 Items)
T5EFC 005:292.307   CPU_ReadMem(4 bytes @ 0xE0001048)
T5EFC 005:292.561   Data:  00 00 00 00
T5EFC 005:292.579   Debug reg: DWT_FUNC[2]
T5EFC 005:292.591 - 0.298ms returns 1 (0x1)
T5EFC 005:292.604 JLINK_ReadMemU32(0xE0001058, 0x1 Items)
T5EFC 005:292.618   CPU_ReadMem(4 bytes @ 0xE0001058)
T5EFC 005:292.923   Data:  00 00 00 00
T5EFC 005:292.941   Debug reg: DWT_FUNC[3]
T5EFC 005:292.953 - 0.349ms returns 1 (0x1)
T5EFC 005:293.006 JLINK_HasError()
T5EFC 005:293.019 JLINK_ReadReg(R0)
T5EFC 005:293.030 - 0.011ms returns 0x20000788
T5EFC 005:293.040 JLINK_ReadReg(R1)
T5EFC 005:293.049 - 0.009ms returns 0x20004C38
T5EFC 005:293.059 JLINK_ReadReg(R2)
T5EFC 005:293.068 - 0.008ms returns 0x00000000
T5EFC 005:293.078 JLINK_ReadReg(R3)
T5EFC 005:293.086 - 0.008ms returns 0x00000003
T5EFC 005:293.096 JLINK_ReadReg(R4)
T5EFC 005:293.104 - 0.008ms returns 0x00000000
T5EFC 005:293.114 JLINK_ReadReg(R5)
T5EFC 005:293.123 - 0.008ms returns 0x00000000
T5EFC 005:293.144 JLINK_ReadReg(R6)
T5EFC 005:293.153 - 0.009ms returns 0x00000000
T5EFC 005:293.163 JLINK_ReadReg(R7)
T5EFC 005:293.171 - 0.008ms returns 0x00000000
T5EFC 005:293.181 JLINK_ReadReg(R8)
T5EFC 005:293.189 - 0.008ms returns 0x00000000
T5EFC 005:293.205 JLINK_ReadReg(R9)
T5EFC 005:293.213 - 0.008ms returns 0x00000000
T5EFC 005:293.223 JLINK_ReadReg(R10)
T5EFC 005:293.232 - 0.008ms returns 0x00000000
T5EFC 005:293.241 JLINK_ReadReg(R11)
T5EFC 005:293.250 - 0.008ms returns 0x00000000
T5EFC 005:293.260 JLINK_ReadReg(R12)
T5EFC 005:293.268 - 0.008ms returns 0x20004C38
T5EFC 005:293.278 JLINK_ReadReg(R13 (SP))
T5EFC 005:293.287 - 0.008ms returns 0x20001F50
T5EFC 005:293.297 JLINK_ReadReg(R14)
T5EFC 005:293.305 - 0.008ms returns 0x08008FEB
T5EFC 005:293.315 JLINK_ReadReg(R15 (PC))
T5EFC 005:293.323 - 0.008ms returns 0x08006320
T5EFC 005:293.333 JLINK_ReadReg(XPSR)
T5EFC 005:293.342 - 0.008ms returns 0x61000000
T5EFC 005:293.352 JLINK_ReadReg(MSP)
T5EFC 005:293.360 - 0.008ms returns 0x20008BF8
T5EFC 005:293.370 JLINK_ReadReg(PSP)
T5EFC 005:293.378 - 0.008ms returns 0x20001F50
T5EFC 005:293.388 JLINK_ReadReg(CFBP)
T5EFC 005:293.396 - 0.008ms returns 0x06000000
T5EFC 005:293.406 JLINK_ReadReg(FPSCR)
T5EFC 005:296.287 - 2.879ms returns 0x60000000
T5EFC 005:296.311 JLINK_ReadReg(FPS0)
T5EFC 005:296.322 - 0.011ms returns 0x00000000
T5EFC 005:296.335 JLINK_ReadReg(FPS1)
T5EFC 005:296.344 - 0.008ms returns 0xC3340000
T5EFC 005:296.357 JLINK_ReadReg(FPS2)
T5EFC 005:296.366 - 0.008ms returns 0x00000000
T5EFC 005:296.376 JLINK_ReadReg(FPS3)
T5EFC 005:296.384 - 0.008ms returns 0x3F800000
T5EFC 005:296.397 JLINK_ReadReg(FPS4)
T5EFC 005:296.405 - 0.008ms returns 0x00000000
T5EFC 005:296.415 JLINK_ReadReg(FPS5)
T5EFC 005:296.424 - 0.008ms returns 0x3F800000
T5EFC 005:296.436 JLINK_ReadReg(FPS6)
T5EFC 005:296.445 - 0.008ms returns 0x00000000
T5EFC 005:296.456 JLINK_ReadReg(FPS7)
T5EFC 005:296.465 - 0.008ms returns 0x00000000
T5EFC 005:296.476 JLINK_ReadReg(FPS8)
T5EFC 005:296.484 - 0.008ms returns 0x00000000
